T4128 1261:556 SEGGER J-Link V4.90 Log File (0001ms, 1246ms total)
T4128 1261:556 DLL Compiled: Jul 28 2014 10:35:20 (0001ms, 1246ms total)
T4128 1261:556 Logging started @ 2021-03-31 19:36 (0001ms, 1246ms total)
T4128 1261:557 JLINK_SetWarnOutHandler(...) (0000ms, 1246ms total)
T4128 1261:557 JLINK_OpenEx(...)
Firmware: J-Link V9 compiled Dec 13 2019 11:14:50
Hardware: V9.70
S/N: 20720254
Feature(s): GDB, RDI, FlashBP, FlashDL, JFlash, RDDI  returns O.K. (0263ms, 1509ms total)
T4128 1261:820 JLINK_GetEmuCaps()  returns 0xB9FF7BBF (0000ms, 1509ms total)
T4128 1261:820 JLINK_TIF_GetAvailable(...) (0001ms, 1510ms total)
T4128 1261:821 JLINK_SetErrorOutHandler(...) (0000ms, 1510ms total)
T4128 1261:821 JLINK_ExecCommand("ProjectFile = "C:\Users\44606\Desktop\Pump01_FW_NEW\MDK-ARM\JLinkSettings.ini"", ...)  returns 0x00 (0001ms, 1511ms total)
T4128 1261:828 JLINK_ExecCommand("Device = STM32F103RC", ...)Device "STM32F103RC" selected (256 KB flash, 48 KB RAM).  returns 0x00 (0022ms, 1533ms total)
T4128 1261:850 JLINK_ExecCommand("DisableConnectionTimeout", ...)  returns 0x01 (0000ms, 1533ms total)
T4128 1261:850 JLINK_GetHardwareVersion()  returns 0x17AE8 (0000ms, 1533ms total)
T4128 1261:850 JLINK_GetDLLVersion()  returns 49000 (0000ms, 1533ms total)
T4128 1261:850 JLINK_GetFirmwareString(...) (0000ms, 1533ms total)
T4128 1261:880 JLINK_GetDLLVersion()  returns 49000 (0000ms, 1533ms total)
T4128 1261:880 JLINK_GetCompileDateTime() (0000ms, 1533ms total)
T4128 1261:885 JLINK_GetFirmwareString(...) (0000ms, 1533ms total)
T4128 1261:890 JLINK_GetHardwareVersion()  returns 0x17AE8 (0001ms, 1534ms total)
T4128 1261:923 JLINK_TIF_Select(JLINKARM_TIF_SWD)  returns 0x00 (0002ms, 1536ms total)
T4128 1261:925 JLINK_SetSpeed(10000) (0000ms, 1536ms total)
T4128 1261:925 JLINK_GetId() >0x108 TIF>Found SWD-DP with ID 0x1BA01477 >0x0D TIF> >0x28 TIF> >0x0D TIF> >0x28 TIF> >0x0D TIF> >0x21 TIF> >0x0D TIF> >0x28 TIF> >0x0D TIF> >0x28 TIF> >0x0D TIF> >0x28 TIF> >0x0D TIF> >0x21 TIF> >0x0D TIF> >0x21 TIF> >0x0D TIF> >0x28 TIF> >0x0D TIF> >0x21 TIF> >0x0D TIF> >0x21 TIF> >0x108 TIF>Found SWD-DP with ID 0x1BA01477 >0x0D TIF> >0x21 TIF> >0x0D TIF> >0x28 TIF> >0x0D TIF> >0x28 TIF> >0x0D TIF> >0x21 TIF> >0x0D TIF> >0x28 TIF> >0x0D TIF> >0x21 TIF> >0x0D TIF>
 >0x21 TIF> >0x0D TIF> >0x21 TIF> >0x0D TIF> >0x21 TIF> >0x0D TIF> >0x28 TIF> >0x0D TIF> >0x28 TIF> >0x0D TIF> >0x21 TIF> >0x0D TIF> >0x28 TIF> >0x0D TIF> >0x28 TIF> >0x0D TIF> >0x28 TIF> >0x0D TIF> >0x21 TIF> >0x0D TIF> >0x21 TIF> >0x0D TIF> >0x28 TIF> >0x0D TIF> >0x21 TIF> >0x0D TIF> >0x21 TIF>Found Cortex-M3 r1p1, Little endian. -- CPU_WriteMem(4 bytes @ 0xE0002000) -- CPU_ReadMem(4 bytes @ 0xE000EDF0) -- CPU_ReadMem(4 bytes @ 0xE0002000)FPUnit: 6 code (BP) slots and 2 literal slots
 -- CPU_ReadMem(4 bytes @ 0xE000EDFC) -- CPU_ReadMem(4 bytes @ 0xE0001000) -- CPU_WriteMem(4 bytes @ 0xE0001000) -- CPU_ReadMem(4 bytes @ 0xE00FF010)TPIU fitted. -- CPU_ReadMem(4 bytes @ 0xE00FF014)ETM fitted. -- CPU_ReadMem(4 bytes @ 0xE00FF018) >0x0D TIF> >0x21 TIF>  returns 0x1BA01477 (0051ms, 1587ms total)
T4128 1261:976 JLINK_GetDLLVersion()  returns 49000 (0000ms, 1587ms total)
T4128 1261:976 JLINK_CORE_GetFound()  returns 0x30000FF (0001ms, 1588ms total)
T4128 1261:984 JLINK_GetDebugInfo(0x100) -- Value=0xE00FF003  returns 0x00 (0000ms, 1588ms total)
T4128 1261:984 JLINK_GetDebugInfo(0x101)  returns 0xFFFFFFFF (0000ms, 1588ms total)
T4128 1261:984 JLINK_ReadMemEx(0xE0041FF0, 0x0010 Bytes, ..., AccessWidth = 33554436) -- CPU is running -- CPU_ReadMem(16 bytes @ 0xE0041FF0) - Data: 0D 00 00 00 90 00 00 00 05 00 00 00 B1 00 00 00  returns 0x10 (0001ms, 1589ms total)
T4128 1261:985 JLINK_ReadMemEx(0xE0041FD0, 0x0020 Bytes, ..., AccessWidth = 33554436) -- CPU is running -- CPU_ReadMem(32 bytes @ 0xE0041FD0) - Data: 04 00 00 00 00 00 00 00 00 00 00 00 00 00 00 00 ...  returns 0x20 (0000ms, 1589ms total)
T4128 1261:985 JLINK_GetDebugInfo(0x102)  returns 0xFFFFFFFF (0000ms, 1589ms total)
T4128 1261:985 JLINK_GetDebugInfo(0x103)  returns 0xFFFFFFFF (0000ms, 1589ms total)
T4128 1261:985 JLINK_ReadMemEx(0xE0040FF0, 0x0010 Bytes, ..., AccessWidth = 33554436) -- CPU is running -- CPU_ReadMem(16 bytes @ 0xE0040FF0) - Data: 0D 00 00 00 90 00 00 00 05 00 00 00 B1 00 00 00  returns 0x10 (0001ms, 1590ms total)
T4128 1261:986 JLINK_GetDebugInfo(0x104)  returns 0xFFFFFFFF (0000ms, 1590ms total)
T4128 1261:986 JLINK_GetDebugInfo(0x105)  returns 0xFFFFFFFF (0000ms, 1590ms total)
T4128 1261:986 JLINK_GetDebugInfo(0x106)  returns 0xFFFFFFFF (0000ms, 1590ms total)
T4128 1261:986 JLINK_GetDebugInfo(0x107)  returns 0xFFFFFFFF (0000ms, 1590ms total)
T4128 1261:986 JLINK_GetDebugInfo(0x10C)  returns 0xFFFFFFFF (0000ms, 1590ms total)
T4128 1261:986 JLINK_GetDebugInfo(0x01)  returns 0xFFFFFFFF (0000ms, 1590ms total)
T4128 1261:986 JLINK_GetDeviceFamily()  returns 3 (0000ms, 1590ms total)
T4128 1261:986 JLINK_ReadMemU32(0xE000ED00, 0x0001 Items, ...) -- CPU is running -- CPU_ReadMem(4 bytes @ 0xE000ED00) - Data: 31 C2 1F 41  returns 0x01 (0001ms, 1591ms total)
T4128 1261:987 JLINK_GetDebugInfo(0x10F)  returns 0xFFFFFFFF (0000ms, 1591ms total)
T4128 1261:987 JLINK_SetResetType(JLINKARM_RESET_TYPE_NORMAL)  returns JLINKARM_RESET_TYPE_NORMAL (0000ms, 1591ms total)
T4128 1261:987 JLINK_Reset() -- CPU is running -- CPU_WriteMem(4 bytes @ 0xE000EDF0) -- CPU is running -- CPU_WriteMem(4 bytes @ 0xE000EDFC) >0x35 TIF> -- CPU is running -- CPU_WriteMem(4 bytes @ 0xE000ED0C) -- CPU is running -- CPU_ReadMem(4 bytes @ 0xE000EDF0) -- CPU is running -- CPU_ReadMem(4 bytes @ 0xE000EDF0) -- CPU is running -- CPU_WriteMem(4 bytes @ 0xE000EDF0) -- CPU is running -- CPU_WriteMem(4 bytes @ 0xE000EDFC) -- CPU is running -- CPU_ReadMem(4 bytes @ 0xE000EDF0)
 -- CPU_WriteMem(4 bytes @ 0xE0002000) -- CPU_ReadMem(4 bytes @ 0xE000EDFC) -- CPU_ReadMem(4 bytes @ 0xE0001000) (0017ms, 1608ms total)
T4128 1262:004 JLINK_Halt()  returns 0x00 (0000ms, 1608ms total)
T4128 1262:004 JLINK_ReadMemU32(0xE000EDF0, 0x0001 Items, ...) -- CPU_ReadMem(4 bytes @ 0xE000EDF0) - Data: 03 00 03 00  returns 0x01 (0001ms, 1609ms total)
T4128 1262:005 JLINK_WriteU32(0xE000EDF0, 0xA05F0003) -- CPU_WriteMem(4 bytes @ 0xE000EDF0)  returns 0x00 (0000ms, 1609ms total)
T4128 1262:005 JLINK_WriteU32(0xE000EDFC, 0x01000000) -- CPU_WriteMem(4 bytes @ 0xE000EDFC)  returns 0x00 (0000ms, 1609ms total)
T4128 1262:030 JLINK_GetHWStatus(...)  returns 0x00 (0000ms, 1609ms total)
T4128 1262:048 JLINK_GetNumBPUnits(Type = 0xFFFFFF00)  returns 0x06 (0000ms, 1609ms total)
T4128 1262:048 JLINK_GetNumBPUnits(Type = 0xF0)  returns 0x2000 (0000ms, 1609ms total)
T4128 1262:048 JLINK_GetNumWPUnits()  returns 0x04 (0000ms, 1609ms total)
T4128 1262:064 JLINK_GetSpeed()  returns 0x1770 (0000ms, 1609ms total)
T4128 1262:076 JLINK_ReadMemU32(0xE000E004, 0x0001 Items, ...) -- CPU_ReadMem(4 bytes @ 0xE000E004) - Data: 01 00 00 00  returns 0x01 (0001ms, 1610ms total)
T4128 1262:077 JLINK_ReadMemU32(0xE000E004, 0x0001 Items, ...) -- CPU_ReadMem(4 bytes @ 0xE000E004) - Data: 01 00 00 00  returns 0x01 (0001ms, 1611ms total)
T4128 1262:078 JLINK_WriteMemEx(0xE0001000, 0x001C Bytes, ..., AccessWidth = 33554436) - Data: 01 00 00 00 00 00 00 00 00 00 00 00 00 00 00 00 ... -- CPU_WriteMem(28 bytes @ 0xE0001000)  returns 0x1C (0000ms, 1611ms total)
T4128 1262:078 JLINK_Halt()  returns 0x00 (0000ms, 1611ms total)
T4128 1262:078 JLINK_IsHalted()  returns TRUE (0000ms, 1611ms total)
T4128 1262:081 JLINK_WriteMem(0x20000000, 0x0164 Bytes, ...) - Data: 00 BE 0A E0 0D 78 2D 06 68 40 08 24 40 00 00 D3 ... -- CPU_WriteMem(356 bytes @ 0x20000000)  returns 0x164 (0002ms, 1613ms total)
T4128 1262:084 JLINK_WriteReg(R0, 0x08000000)  returns 0x00 (0000ms, 1613ms total)
T4128 1262:084 JLINK_WriteReg(R1, 0x044AA200)  returns 0x00 (0000ms, 1613ms total)
T4128 1262:084 JLINK_WriteReg(R2, 0x00000001)  returns 0x00 (0000ms, 1613ms total)
T4128 1262:084 JLINK_WriteReg(R3, 0x00000000)  returns 0x00 (0000ms, 1613ms total)
T4128 1262:084 JLINK_WriteReg(R4, 0x00000000)  returns 0x00 (0000ms, 1613ms total)
T4128 1262:084 JLINK_WriteReg(R5, 0x00000000)  returns 0x00 (0000ms, 1613ms total)
T4128 1262:084 JLINK_WriteReg(R6, 0x00000000)  returns 0x00 (0000ms, 1613ms total)
T4128 1262:084 JLINK_WriteReg(R7, 0x00000000)  returns 0x00 (0000ms, 1613ms total)
T4128 1262:084 JLINK_WriteReg(R8, 0x00000000)  returns 0x00 (0000ms, 1613ms total)
T4128 1262:084 JLINK_WriteReg(R9, 0x20000160)  returns 0x00 (0000ms, 1613ms total)
T4128 1262:084 JLINK_WriteReg(R10, 0x00000000)  returns 0x00 (0000ms, 1613ms total)
T4128 1262:084 JLINK_WriteReg(R11, 0x00000000)  returns 0x00 (0000ms, 1613ms total)
T4128 1262:084 JLINK_WriteReg(R12, 0x00000000)  returns 0x00 (0000ms, 1613ms total)
T4128 1262:084 JLINK_WriteReg(R13 (SP), 0x20001000)  returns 0x00 (0000ms, 1613ms total)
T4128 1262:084 JLINK_WriteReg(R14, 0x20000001)  returns 0x00 (0000ms, 1613ms total)
T4128 1262:084 JLINK_WriteReg(R15 (PC), 0x20000038)  returns 0x00 (0000ms, 1613ms total)
T4128 1262:085 JLINK_WriteReg(XPSR, 0x01000000)  returns 0x00 (0000ms, 1613ms total)
T4128 1262:085 JLINK_WriteReg(MSP, 0x20001000)  returns 0x00 (0000ms, 1613ms total)
T4128 1262:085 JLINK_WriteReg(PSP, 0x20001000)  returns 0x00 (0000ms, 1613ms total)
T4128 1262:085 JLINK_WriteReg(CFBP, 0x00000000)  returns 0x00 (0000ms, 1613ms total)
T4128 1262:085 JLINK_SetBPEx(Addr = 0x20000000, Type = 0xFFFFFFF2) -- CPU_ReadMem(2 bytes @ 0x20000000)  returns 0x00000001 (0000ms, 1613ms total)
T4128 1262:085 JLINK_Go() -- CPU_WriteMem(2 bytes @ 0x20000000) -- CPU_WriteMem(4 bytes @ 0xE0002008) -- CPU_WriteMem(4 bytes @ 0xE000200C) -- CPU_WriteMem(4 bytes @ 0xE0002010) -- CPU_WriteMem(4 bytes @ 0xE0002014) -- CPU_WriteMem(4 bytes @ 0xE0002018) -- CPU_WriteMem(4 bytes @ 0xE000201C) -- CPU_WriteMem(4 bytes @ 0xE0001004) (0005ms, 1618ms total)
T4128 1262:090 JLINK_IsHalted() -- CPU_ReadMem(2 bytes @ 0x20000000)  returns TRUE (0004ms, 1622ms total)
T4128 1262:094 JLINK_ReadReg(R15 (PC))  returns 0x20000000 (0000ms, 1618ms total)
T4128 1262:094 JLINK_ClrBPEx(BPHandle = 0x00000001)  returns 0x00 (0000ms, 1618ms total)
T4128 1262:094 JLINK_ReadReg(R0)  returns 0x00000000 (0000ms, 1618ms total)
T4128 1262:094 JLINK_WriteReg(R0, 0x08000000)  returns 0x00 (0000ms, 1618ms total)
T4128 1262:094 JLINK_WriteReg(R1, 0x044AA200)  returns 0x00 (0000ms, 1618ms total)
T4128 1262:094 JLINK_WriteReg(R2, 0x00000001)  returns 0x00 (0000ms, 1618ms total)
T4128 1262:094 JLINK_WriteReg(R3, 0x00000000)  returns 0x00 (0000ms, 1618ms total)
T4128 1262:094 JLINK_WriteReg(R4, 0x00000000)  returns 0x00 (0000ms, 1618ms total)
T4128 1262:094 JLINK_WriteReg(R5, 0x00000000)  returns 0x00 (0000ms, 1618ms total)
T4128 1262:094 JLINK_WriteReg(R6, 0x00000000)  returns 0x00 (0000ms, 1618ms total)
T4128 1262:094 JLINK_WriteReg(R7, 0x00000000)  returns 0x00 (0000ms, 1618ms total)
T4128 1262:094 JLINK_WriteReg(R8, 0x00000000)  returns 0x00 (0000ms, 1618ms total)
T4128 1262:094 JLINK_WriteReg(R9, 0x20000160)  returns 0x00 (0000ms, 1618ms total)
T4128 1262:094 JLINK_WriteReg(R10, 0x00000000)  returns 0x00 (0000ms, 1618ms total)
T4128 1262:094 JLINK_WriteReg(R11, 0x00000000)  returns 0x00 (0000ms, 1618ms total)
T4128 1262:094 JLINK_WriteReg(R12, 0x00000000)  returns 0x00 (0000ms, 1618ms total)
T4128 1262:094 JLINK_WriteReg(R13 (SP), 0x20001000)  returns 0x00 (0000ms, 1618ms total)
T4128 1262:094 JLINK_WriteReg(R14, 0x20000001)  returns 0x00 (0000ms, 1618ms total)
T4128 1262:094 JLINK_WriteReg(R15 (PC), 0x2000007C)  returns 0x00 (0000ms, 1618ms total)
T4128 1262:094 JLINK_WriteReg(XPSR, 0x01000000)  returns 0x00 (0001ms, 1619ms total)
T4128 1262:095 JLINK_WriteReg(MSP, 0x20001000)  returns 0x00 (0000ms, 1619ms total)
T4128 1262:095 JLINK_WriteReg(PSP, 0x20001000)  returns 0x00 (0000ms, 1619ms total)
T4128 1262:095 JLINK_WriteReg(CFBP, 0x00000000)  returns 0x00 (0000ms, 1619ms total)
T4128 1262:095 JLINK_SetBPEx(Addr = 0x20000000, Type = 0xFFFFFFF2)  returns 0x00000002 (0000ms, 1619ms total)
T4128 1262:095 JLINK_Go() (0001ms, 1620ms total)
T4128 1262:096 JLINK_IsHalted()  returns FALSE (0000ms, 1620ms total)
T4128 1262:168 JLINK_IsHalted() -- CPU_ReadMem(2 bytes @ 0x20000000)  returns TRUE (0003ms, 1623ms total)
T4128 1262:171 JLINK_ReadReg(R15 (PC))  returns 0x20000000 (0000ms, 1620ms total)
T4128 1262:171 JLINK_ClrBPEx(BPHandle = 0x00000002)  returns 0x00 (0000ms, 1620ms total)
T4128 1262:171 JLINK_ReadReg(R0)  returns 0x00000000 (0000ms, 1620ms total)
T4128 1262:224 JLINK_WriteReg(R0, 0x00000001)  returns 0x00 (0000ms, 1620ms total)
T4128 1262:224 JLINK_WriteReg(R1, 0x044AA200)  returns 0x00 (0000ms, 1620ms total)
T4128 1262:224 JLINK_WriteReg(R2, 0x00000001)  returns 0x00 (0000ms, 1620ms total)
T4128 1262:224 JLINK_WriteReg(R3, 0x00000000)  returns 0x00 (0000ms, 1620ms total)
T4128 1262:224 JLINK_WriteReg(R4, 0x00000000)  returns 0x00 (0000ms, 1620ms total)
T4128 1262:224 JLINK_WriteReg(R5, 0x00000000)  returns 0x00 (0000ms, 1620ms total)
T4128 1262:224 JLINK_WriteReg(R6, 0x00000000)  returns 0x00 (0000ms, 1620ms total)
T4128 1262:224 JLINK_WriteReg(R7, 0x00000000)  returns 0x00 (0000ms, 1620ms total)
T4128 1262:224 JLINK_WriteReg(R8, 0x00000000)  returns 0x00 (0000ms, 1620ms total)
T4128 1262:224 JLINK_WriteReg(R9, 0x20000160)  returns 0x00 (0000ms, 1620ms total)
T4128 1262:224 JLINK_WriteReg(R10, 0x00000000)  returns 0x00 (0000ms, 1620ms total)
T4128 1262:224 JLINK_WriteReg(R11, 0x00000000)  returns 0x00 (0000ms, 1620ms total)
T4128 1262:224 JLINK_WriteReg(R12, 0x00000000)  returns 0x00 (0000ms, 1620ms total)
T4128 1262:224 JLINK_WriteReg(R13 (SP), 0x20001000)  returns 0x00 (0000ms, 1620ms total)
T4128 1262:224 JLINK_WriteReg(R14, 0x20000001)  returns 0x00 (0000ms, 1620ms total)
T4128 1262:224 JLINK_WriteReg(R15 (PC), 0x2000006A)  returns 0x00 (0000ms, 1620ms total)
T4128 1262:224 JLINK_WriteReg(XPSR, 0x01000000)  returns 0x00 (0000ms, 1620ms total)
T4128 1262:224 JLINK_WriteReg(MSP, 0x20001000)  returns 0x00 (0000ms, 1620ms total)
T4128 1262:224 JLINK_WriteReg(PSP, 0x20001000)  returns 0x00 (0000ms, 1620ms total)
T4128 1262:224 JLINK_WriteReg(CFBP, 0x00000000)  returns 0x00 (0000ms, 1620ms total)
T4128 1262:224 JLINK_SetBPEx(Addr = 0x20000000, Type = 0xFFFFFFF2)  returns 0x00000003 (0000ms, 1620ms total)
T4128 1262:224 JLINK_Go() (0002ms, 1622ms total)
T4128 1262:226 JLINK_IsHalted() -- CPU_ReadMem(2 bytes @ 0x20000000)  returns TRUE (0003ms, 1625ms total)
T4128 1262:229 JLINK_ReadReg(R15 (PC))  returns 0x20000000 (0000ms, 1622ms total)
T4128 1262:229 JLINK_ClrBPEx(BPHandle = 0x00000003)  returns 0x00 (0000ms, 1622ms total)
T4128 1262:229 JLINK_ReadReg(R0)  returns 0x00000000 (0000ms, 1622ms total)
T4128 1262:238 JLINK_WriteMem(0x20000000, 0x0164 Bytes, ...) - Data: 00 BE 0A E0 0D 78 2D 06 68 40 08 24 40 00 00 D3 ... -- CPU_WriteMem(356 bytes @ 0x20000000)  returns 0x164 (0001ms, 1623ms total)
T4128 1262:239 JLINK_WriteReg(R0, 0x08000000)  returns 0x00 (0000ms, 1623ms total)
T4128 1262:239 JLINK_WriteReg(R1, 0x044AA200)  returns 0x00 (0000ms, 1623ms total)
T4128 1262:239 JLINK_WriteReg(R2, 0x00000002)  returns 0x00 (0000ms, 1623ms total)
T4128 1262:239 JLINK_WriteReg(R3, 0x00000000)  returns 0x00 (0000ms, 1623ms total)
T4128 1262:239 JLINK_WriteReg(R4, 0x00000000)  returns 0x00 (0000ms, 1623ms total)
T4128 1262:239 JLINK_WriteReg(R5, 0x00000000)  returns 0x00 (0000ms, 1623ms total)
T4128 1262:239 JLINK_WriteReg(R6, 0x00000000)  returns 0x00 (0000ms, 1623ms total)
T4128 1262:239 JLINK_WriteReg(R7, 0x00000000)  returns 0x00 (0000ms, 1623ms total)
T4128 1262:239 JLINK_WriteReg(R8, 0x00000000)  returns 0x00 (0000ms, 1623ms total)
T4128 1262:239 JLINK_WriteReg(R9, 0x20000160)  returns 0x00 (0000ms, 1623ms total)
T4128 1262:239 JLINK_WriteReg(R10, 0x00000000)  returns 0x00 (0000ms, 1623ms total)
T4128 1262:239 JLINK_WriteReg(R11, 0x00000000)  returns 0x00 (0000ms, 1623ms total)
T4128 1262:239 JLINK_WriteReg(R12, 0x00000000)  returns 0x00 (0000ms, 1623ms total)
T4128 1262:239 JLINK_WriteReg(R13 (SP), 0x20001000)  returns 0x00 (0000ms, 1623ms total)
T4128 1262:240 JLINK_WriteReg(R14, 0x20000001)  returns 0x00 (0000ms, 1623ms total)
T4128 1262:240 JLINK_WriteReg(R15 (PC), 0x20000038)  returns 0x00 (0000ms, 1623ms total)
T4128 1262:240 JLINK_WriteReg(XPSR, 0x01000000)  returns 0x00 (0000ms, 1623ms total)
T4128 1262:240 JLINK_WriteReg(MSP, 0x20001000)  returns 0x00 (0000ms, 1623ms total)
T4128 1262:240 JLINK_WriteReg(PSP, 0x20001000)  returns 0x00 (0000ms, 1623ms total)
T4128 1262:240 JLINK_WriteReg(CFBP, 0x00000000)  returns 0x00 (0000ms, 1623ms total)
T4128 1262:240 JLINK_SetBPEx(Addr = 0x20000000, Type = 0xFFFFFFF2) -- CPU_ReadMem(2 bytes @ 0x20000000)  returns 0x00000004 (0000ms, 1623ms total)
T4128 1262:240 JLINK_Go() -- CPU_WriteMem(2 bytes @ 0x20000000) (0002ms, 1625ms total)
T4128 1262:242 JLINK_IsHalted() -- CPU_ReadMem(2 bytes @ 0x20000000)  returns TRUE (0003ms, 1628ms total)
T4128 1262:245 JLINK_ReadReg(R15 (PC))  returns 0x20000000 (0000ms, 1625ms total)
T4128 1262:245 JLINK_ClrBPEx(BPHandle = 0x00000004)  returns 0x00 (0000ms, 1625ms total)
T4128 1262:245 JLINK_ReadReg(R0)  returns 0x00000000 (0000ms, 1625ms total)
T4128 1262:245 JLINK_WriteMem(0x20000164, 0x029C Bytes, ...) - Data: 90 18 00 20 45 01 00 08 75 52 00 08 F5 4B 00 08 ... -- CPU_WriteMem(668 bytes @ 0x20000164)  returns 0x29C (0004ms, 1629ms total)
T4128 1262:249 JLINK_WriteMem(0x20000400, 0x0164 Bytes, ...) - Data: 6A 46 09 A8 0F 99 00 F0 67 FD 0D B0 5D F8 14 FB ... -- CPU_WriteMem(356 bytes @ 0x20000400)  returns 0x164 (0002ms, 1631ms total)
T4128 1262:251 JLINK_WriteReg(R0, 0x08000000)  returns 0x00 (0000ms, 1631ms total)
T4128 1262:251 JLINK_WriteReg(R1, 0x00000400)  returns 0x00 (0000ms, 1631ms total)
T4128 1262:251 JLINK_WriteReg(R2, 0x20000164)  returns 0x00 (0000ms, 1631ms total)
T4128 1262:251 JLINK_WriteReg(R3, 0x00000000)  returns 0x00 (0000ms, 1631ms total)
T4128 1262:251 JLINK_WriteReg(R4, 0x00000000)  returns 0x00 (0000ms, 1631ms total)
T4128 1262:251 JLINK_WriteReg(R5, 0x00000000)  returns 0x00 (0000ms, 1631ms total)
T4128 1262:251 JLINK_WriteReg(R6, 0x00000000)  returns 0x00 (0000ms, 1631ms total)
T4128 1262:251 JLINK_WriteReg(R7, 0x00000000)  returns 0x00 (0000ms, 1631ms total)
T4128 1262:251 JLINK_WriteReg(R8, 0x00000000)  returns 0x00 (0000ms, 1631ms total)
T4128 1262:251 JLINK_WriteReg(R9, 0x20000160)  returns 0x00 (0000ms, 1631ms total)
T4128 1262:251 JLINK_WriteReg(R10, 0x00000000)  returns 0x00 (0000ms, 1631ms total)
T4128 1262:251 JLINK_WriteReg(R11, 0x00000000)  returns 0x00 (0000ms, 1631ms total)
T4128 1262:251 JLINK_WriteReg(R12, 0x00000000)  returns 0x00 (0000ms, 1631ms total)
T4128 1262:251 JLINK_WriteReg(R13 (SP), 0x20001000)  returns 0x00 (0000ms, 1631ms total)
T4128 1262:251 JLINK_WriteReg(R14, 0x20000001)  returns 0x00 (0000ms, 1631ms total)
T4128 1262:251 JLINK_WriteReg(R15 (PC), 0x200000F4)  returns 0x00 (0000ms, 1631ms total)
T4128 1262:251 JLINK_WriteReg(XPSR, 0x01000000)  returns 0x00 (0000ms, 1631ms total)
T4128 1262:251 JLINK_WriteReg(MSP, 0x20001000)  returns 0x00 (0000ms, 1631ms total)
T4128 1262:251 JLINK_WriteReg(PSP, 0x20001000)  returns 0x00 (0000ms, 1631ms total)
T4128 1262:251 JLINK_WriteReg(CFBP, 0x00000000)  returns 0x00 (0000ms, 1631ms total)
T4128 1262:251 JLINK_SetBPEx(Addr = 0x20000000, Type = 0xFFFFFFF2)  returns 0x00000005 (0000ms, 1631ms total)
T4128 1262:251 JLINK_Go() (0002ms, 1633ms total)
T4128 1262:253 JLINK_IsHalted()  returns FALSE (0000ms, 1633ms total)
T4128 1262:260 JLINK_IsHalted()  returns FALSE (0000ms, 1633ms total)
T4128 1262:262 JLINK_IsHalted()  returns FALSE (0000ms, 1633ms total)
T4128 1262:264 JLINK_IsHalted()  returns FALSE (0000ms, 1633ms total)
T4128 1262:265 JLINK_IsHalted()  returns FALSE (0000ms, 1633ms total)
T4128 1262:267 JLINK_IsHalted()  returns FALSE (0001ms, 1634ms total)
T4128 1262:270 JLINK_IsHalted()  returns FALSE (0000ms, 1633ms total)
T4128 1262:272 JLINK_IsHalted()  returns FALSE (0000ms, 1633ms total)
T4128 1262:274 JLINK_IsHalted()  returns FALSE (0000ms, 1633ms total)
T4128 1262:276 JLINK_IsHalted()  returns FALSE (0001ms, 1634ms total)
T4128 1262:279 JLINK_IsHalted()  returns FALSE (0000ms, 1633ms total)
T4128 1262:281 JLINK_IsHalted()  returns FALSE (0000ms, 1633ms total)
T4128 1262:284 JLINK_IsHalted() -- CPU_ReadMem(2 bytes @ 0x20000000)  returns TRUE (0002ms, 1635ms total)
T4128 1262:286 JLINK_ReadReg(R15 (PC))  returns 0x20000000 (0000ms, 1633ms total)
T4128 1262:286 JLINK_ClrBPEx(BPHandle = 0x00000005)  returns 0x00 (0000ms, 1633ms total)
T4128 1262:286 JLINK_ReadReg(R0)  returns 0x00000000 (0000ms, 1633ms total)
T4128 1262:287 JLINK_WriteMem(0x20000164, 0x029C Bytes, ...) - Data: 2D E9 FF 4F 08 78 83 B0 99 46 FF 28 05 D0 49 1C ... -- CPU_WriteMem(668 bytes @ 0x20000164)  returns 0x29C (0003ms, 1636ms total)
T4128 1262:290 JLINK_WriteMem(0x20000400, 0x0164 Bytes, ...) - Data: 21 E0 0D F1 29 01 76 1E 44 F4 00 74 88 45 0C D2 ... -- CPU_WriteMem(356 bytes @ 0x20000400)  returns 0x164 (0001ms, 1637ms total)
T4128 1262:291 JLINK_WriteReg(R0, 0x08000400)  returns 0x00 (0000ms, 1637ms total)
T4128 1262:291 JLINK_WriteReg(R1, 0x00000400)  returns 0x00 (0001ms, 1638ms total)
T4128 1262:292 JLINK_WriteReg(R2, 0x20000164)  returns 0x00 (0000ms, 1638ms total)
T4128 1262:292 JLINK_WriteReg(R3, 0x00000000)  returns 0x00 (0000ms, 1638ms total)
T4128 1262:292 JLINK_WriteReg(R4, 0x00000000)  returns 0x00 (0000ms, 1638ms total)
T4128 1262:292 JLINK_WriteReg(R5, 0x00000000)  returns 0x00 (0000ms, 1638ms total)
T4128 1262:292 JLINK_WriteReg(R6, 0x00000000)  returns 0x00 (0000ms, 1638ms total)
T4128 1262:292 JLINK_WriteReg(R7, 0x00000000)  returns 0x00 (0000ms, 1638ms total)
T4128 1262:292 JLINK_WriteReg(R8, 0x00000000)  returns 0x00 (0000ms, 1638ms total)
T4128 1262:292 JLINK_WriteReg(R9, 0x20000160)  returns 0x00 (0000ms, 1638ms total)
T4128 1262:292 JLINK_WriteReg(R10, 0x00000000)  returns 0x00 (0000ms, 1638ms total)
T4128 1262:292 JLINK_WriteReg(R11, 0x00000000)  returns 0x00 (0000ms, 1638ms total)
T4128 1262:292 JLINK_WriteReg(R12, 0x00000000)  returns 0x00 (0000ms, 1638ms total)
T4128 1262:292 JLINK_WriteReg(R13 (SP), 0x20001000)  returns 0x00 (0000ms, 1638ms total)
T4128 1262:292 JLINK_WriteReg(R14, 0x20000001)  returns 0x00 (0000ms, 1638ms total)
T4128 1262:292 JLINK_WriteReg(R15 (PC), 0x200000F4)  returns 0x00 (0000ms, 1638ms total)
T4128 1262:292 JLINK_WriteReg(XPSR, 0x01000000)  returns 0x00 (0000ms, 1638ms total)
T4128 1262:292 JLINK_WriteReg(MSP, 0x20001000)  returns 0x00 (0000ms, 1638ms total)
T4128 1262:292 JLINK_WriteReg(PSP, 0x20001000)  returns 0x00 (0000ms, 1638ms total)
T4128 1262:292 JLINK_WriteReg(CFBP, 0x00000000)  returns 0x00 (0000ms, 1638ms total)
T4128 1262:292 JLINK_SetBPEx(Addr = 0x20000000, Type = 0xFFFFFFF2)  returns 0x00000006 (0000ms, 1638ms total)
T4128 1262:292 JLINK_Go() (0003ms, 1641ms total)
T4128 1262:295 JLINK_IsHalted()  returns FALSE (0000ms, 1641ms total)
T4128 1262:296 JLINK_IsHalted()  returns FALSE (0001ms, 1642ms total)
T4128 1262:299 JLINK_IsHalted()  returns FALSE (0000ms, 1641ms total)
T4128 1262:301 JLINK_IsHalted()  returns FALSE (0000ms, 1641ms total)
T4128 1262:303 JLINK_IsHalted()  returns FALSE (0001ms, 1642ms total)
T4128 1262:305 JLINK_IsHalted()  returns FALSE (0000ms, 1641ms total)
T4128 1262:307 JLINK_IsHalted()  returns FALSE (0000ms, 1641ms total)
T4128 1262:309 JLINK_IsHalted()  returns FALSE (0000ms, 1641ms total)
T4128 1262:312 JLINK_IsHalted()  returns FALSE (0000ms, 1641ms total)
T4128 1262:314 JLINK_IsHalted()  returns FALSE (0000ms, 1641ms total)
T4128 1262:316 JLINK_IsHalted()  returns FALSE (0000ms, 1641ms total)
T4128 1262:318 JLINK_IsHalted()  returns FALSE (0000ms, 1641ms total)
T4128 1262:320 JLINK_IsHalted()  returns FALSE (0000ms, 1641ms total)
T4128 1262:322 JLINK_IsHalted()  returns FALSE (0000ms, 1641ms total)
T4128 1262:324 JLINK_IsHalted()  returns FALSE (0000ms, 1641ms total)
T4128 1262:326 JLINK_IsHalted() -- CPU_ReadMem(2 bytes @ 0x20000000)  returns TRUE (0002ms, 1643ms total)
T4128 1262:328 JLINK_ReadReg(R15 (PC))  returns 0x20000000 (0000ms, 1641ms total)
T4128 1262:328 JLINK_ClrBPEx(BPHandle = 0x00000006)  returns 0x00 (0000ms, 1641ms total)
T4128 1262:328 JLINK_ReadReg(R0)  returns 0x00000000 (0000ms, 1641ms total)
T4128 1262:328 JLINK_WriteMem(0x20000164, 0x029C Bytes, ...) - Data: 0A 51 02 90 40 1A 01 90 40 28 6B DA C3 F3 13 00 ... -- CPU_WriteMem(668 bytes @ 0x20000164)  returns 0x29C (0004ms, 1645ms total)
T4128 1262:332 JLINK_WriteMem(0x20000400, 0x0164 Bytes, ...) - Data: 05 01 08 43 05 D0 10 1B AB 41 06 D2 01 22 00 23 ... -- CPU_WriteMem(356 bytes @ 0x20000400)  returns 0x164 (0003ms, 1648ms total)
T4128 1262:335 JLINK_WriteReg(R0, 0x08000800)  returns 0x00 (0000ms, 1648ms total)
T4128 1262:335 JLINK_WriteReg(R1, 0x00000400)  returns 0x00 (0000ms, 1648ms total)
T4128 1262:335 JLINK_WriteReg(R2, 0x20000164)  returns 0x00 (0000ms, 1648ms total)
T4128 1262:335 JLINK_WriteReg(R3, 0x00000000)  returns 0x00 (0000ms, 1648ms total)
T4128 1262:335 JLINK_WriteReg(R4, 0x00000000)  returns 0x00 (0000ms, 1648ms total)
T4128 1262:335 JLINK_WriteReg(R5, 0x00000000)  returns 0x00 (0000ms, 1648ms total)
T4128 1262:335 JLINK_WriteReg(R6, 0x00000000)  returns 0x00 (0000ms, 1648ms total)
T4128 1262:335 JLINK_WriteReg(R7, 0x00000000)  returns 0x00 (0000ms, 1648ms total)
T4128 1262:335 JLINK_WriteReg(R8, 0x00000000)  returns 0x00 (0000ms, 1648ms total)
T4128 1262:335 JLINK_WriteReg(R9, 0x20000160)  returns 0x00 (0000ms, 1648ms total)
T4128 1262:335 JLINK_WriteReg(R10, 0x00000000)  returns 0x00 (0000ms, 1648ms total)
T4128 1262:335 JLINK_WriteReg(R11, 0x00000000)  returns 0x00 (0000ms, 1648ms total)
T4128 1262:335 JLINK_WriteReg(R12, 0x00000000)  returns 0x00 (0000ms, 1648ms total)
T4128 1262:335 JLINK_WriteReg(R13 (SP), 0x20001000)  returns 0x00 (0000ms, 1648ms total)
T4128 1262:335 JLINK_WriteReg(R14, 0x20000001)  returns 0x00 (0000ms, 1648ms total)
T4128 1262:335 JLINK_WriteReg(R15 (PC), 0x200000F4)  returns 0x00 (0000ms, 1648ms total)
T4128 1262:335 JLINK_WriteReg(XPSR, 0x01000000)  returns 0x00 (0000ms, 1648ms total)
T4128 1262:335 JLINK_WriteReg(MSP, 0x20001000)  returns 0x00 (0000ms, 1648ms total)
T4128 1262:335 JLINK_WriteReg(PSP, 0x20001000)  returns 0x00 (0000ms, 1648ms total)
T4128 1262:335 JLINK_WriteReg(CFBP, 0x00000000)  returns 0x00 (0001ms, 1649ms total)
T4128 1262:336 JLINK_SetBPEx(Addr = 0x20000000, Type = 0xFFFFFFF2)  returns 0x00000007 (0000ms, 1649ms total)
T4128 1262:336 JLINK_Go() (0001ms, 1650ms total)
T4128 1262:337 JLINK_IsHalted()  returns FALSE (0001ms, 1651ms total)
T4128 1262:340 JLINK_IsHalted()  returns FALSE (0000ms, 1650ms total)
T4128 1262:342 JLINK_IsHalted()  returns FALSE (0000ms, 1650ms total)
T4128 1262:344 JLINK_IsHalted()  returns FALSE (0000ms, 1650ms total)
T4128 1262:346 JLINK_IsHalted()  returns FALSE (0000ms, 1650ms total)
T4128 1262:348 JLINK_IsHalted()  returns FALSE (0000ms, 1650ms total)
T4128 1262:352 JLINK_IsHalted()  returns FALSE (0000ms, 1650ms total)
T4128 1262:354 JLINK_IsHalted()  returns FALSE (0001ms, 1651ms total)
T4128 1262:357 JLINK_IsHalted()  returns FALSE (0000ms, 1650ms total)
T4128 1262:359 JLINK_IsHalted()  returns FALSE (0000ms, 1650ms total)
T4128 1262:362 JLINK_IsHalted()  returns FALSE (0000ms, 1650ms total)
T4128 1262:364 JLINK_IsHalted()  returns FALSE (0000ms, 1650ms total)
T4128 1262:366 JLINK_IsHalted()  returns FALSE (0000ms, 1650ms total)
T4128 1262:367 JLINK_IsHalted()  returns FALSE (0001ms, 1651ms total)
T4128 1262:370 JLINK_IsHalted() -- CPU_ReadMem(2 bytes @ 0x20000000)  returns TRUE (0001ms, 1651ms total)
T4128 1262:371 JLINK_ReadReg(R15 (PC))  returns 0x20000000 (0000ms, 1650ms total)
T4128 1262:371 JLINK_ClrBPEx(BPHandle = 0x00000007)  returns 0x00 (0000ms, 1650ms total)
T4128 1262:372 JLINK_ReadReg(R0)  returns 0x00000000 (0000ms, 1651ms total)
T4128 1262:372 JLINK_WriteMem(0x20000164, 0x029C Bytes, ...) - Data: 1C 46 4F F0 00 43 52 42 63 EB 04 03 8B 42 08 BF ... -- CPU_WriteMem(668 bytes @ 0x20000164)  returns 0x29C (0004ms, 1655ms total)
T4128 1262:376 JLINK_WriteMem(0x20000400, 0x0164 Bytes, ...) - Data: 11 FA 0C F1 18 BF 01 21 21 43 08 43 A3 EB 0C 01 ... -- CPU_WriteMem(356 bytes @ 0x20000400)  returns 0x164 (0001ms, 1656ms total)
T4128 1262:378 JLINK_WriteReg(R0, 0x08000C00)  returns 0x00 (0000ms, 1656ms total)
T4128 1262:378 JLINK_WriteReg(R1, 0x00000400)  returns 0x00 (0000ms, 1656ms total)
T4128 1262:378 JLINK_WriteReg(R2, 0x20000164)  returns 0x00 (0000ms, 1656ms total)
T4128 1262:378 JLINK_WriteReg(R3, 0x00000000)  returns 0x00 (0000ms, 1656ms total)
T4128 1262:378 JLINK_WriteReg(R4, 0x00000000)  returns 0x00 (0000ms, 1656ms total)
T4128 1262:378 JLINK_WriteReg(R5, 0x00000000)  returns 0x00 (0000ms, 1656ms total)
T4128 1262:378 JLINK_WriteReg(R6, 0x00000000)  returns 0x00 (0000ms, 1656ms total)
T4128 1262:378 JLINK_WriteReg(R7, 0x00000000)  returns 0x00 (0000ms, 1656ms total)
T4128 1262:378 JLINK_WriteReg(R8, 0x00000000)  returns 0x00 (0000ms, 1656ms total)
T4128 1262:378 JLINK_WriteReg(R9, 0x20000160)  returns 0x00 (0000ms, 1656ms total)
T4128 1262:378 JLINK_WriteReg(R10, 0x00000000)  returns 0x00 (0000ms, 1656ms total)
T4128 1262:378 JLINK_WriteReg(R11, 0x00000000)  returns 0x00 (0000ms, 1656ms total)
T4128 1262:378 JLINK_WriteReg(R12, 0x00000000)  returns 0x00 (0000ms, 1656ms total)
T4128 1262:378 JLINK_WriteReg(R13 (SP), 0x20001000)  returns 0x00 (0000ms, 1656ms total)
T4128 1262:378 JLINK_WriteReg(R14, 0x20000001)  returns 0x00 (0000ms, 1656ms total)
T4128 1262:378 JLINK_WriteReg(R15 (PC), 0x200000F4)  returns 0x00 (0000ms, 1656ms total)
T4128 1262:378 JLINK_WriteReg(XPSR, 0x01000000)  returns 0x00 (0000ms, 1656ms total)
T4128 1262:378 JLINK_WriteReg(MSP, 0x20001000)  returns 0x00 (0000ms, 1656ms total)
T4128 1262:378 JLINK_WriteReg(PSP, 0x20001000)  returns 0x00 (0000ms, 1656ms total)
T4128 1262:378 JLINK_WriteReg(CFBP, 0x00000000)  returns 0x00 (0000ms, 1656ms total)
T4128 1262:378 JLINK_SetBPEx(Addr = 0x20000000, Type = 0xFFFFFFF2)  returns 0x00000008 (0000ms, 1656ms total)
T4128 1262:378 JLINK_Go() (0003ms, 1659ms total)
T4128 1262:381 JLINK_IsHalted()  returns FALSE (0000ms, 1659ms total)
T4128 1262:383 JLINK_IsHalted()  returns FALSE (0000ms, 1659ms total)
T4128 1262:385 JLINK_IsHalted()  returns FALSE (0000ms, 1659ms total)
T4128 1262:387 JLINK_IsHalted()  returns FALSE (0000ms, 1659ms total)
T4128 1262:389 JLINK_IsHalted()  returns FALSE (0000ms, 1659ms total)
T4128 1262:391 JLINK_IsHalted()  returns FALSE (0000ms, 1659ms total)
T4128 1262:393 JLINK_IsHalted()  returns FALSE (0000ms, 1659ms total)
T4128 1262:395 JLINK_IsHalted()  returns FALSE (0000ms, 1659ms total)
T4128 1262:398 JLINK_IsHalted()  returns FALSE (0000ms, 1659ms total)
T4128 1262:399 JLINK_IsHalted()  returns FALSE (0000ms, 1659ms total)
T4128 1262:402 JLINK_IsHalted()  returns FALSE (0000ms, 1659ms total)
T4128 1262:404 JLINK_IsHalted()  returns FALSE (0000ms, 1659ms total)
T4128 1262:406 JLINK_IsHalted()  returns FALSE (0000ms, 1659ms total)
T4128 1262:407 JLINK_IsHalted()  returns FALSE (0000ms, 1659ms total)
T4128 1262:409 JLINK_IsHalted()  returns FALSE (0000ms, 1659ms total)
T4128 1262:411 JLINK_IsHalted() -- CPU_ReadMem(2 bytes @ 0x20000000)  returns TRUE (0002ms, 1661ms total)
T4128 1262:413 JLINK_ReadReg(R15 (PC))  returns 0x20000000 (0000ms, 1659ms total)
T4128 1262:413 JLINK_ClrBPEx(BPHandle = 0x00000008)  returns 0x00 (0000ms, 1659ms total)
T4128 1262:413 JLINK_ReadReg(R0)  returns 0x00000000 (0001ms, 1660ms total)
T4128 1262:414 JLINK_WriteMem(0x20000164, 0x029C Bytes, ...) - Data: C0 B2 4F F4 F0 51 00 F0 97 B9 00 00 2D E9 F3 4F ... -- CPU_WriteMem(668 bytes @ 0x20000164)  returns 0x29C (0004ms, 1664ms total)
T4128 1262:418 JLINK_WriteMem(0x20000400, 0x0164 Bytes, ...) - Data: 39 B9 00 21 0A 46 53 46 43 F8 21 20 49 1C 08 29 ... -- CPU_WriteMem(356 bytes @ 0x20000400)  returns 0x164 (0002ms, 1666ms total)
T4128 1262:420 JLINK_WriteReg(R0, 0x08001000)  returns 0x00 (0000ms, 1666ms total)
T4128 1262:420 JLINK_WriteReg(R1, 0x00000400)  returns 0x00 (0000ms, 1666ms total)
T4128 1262:420 JLINK_WriteReg(R2, 0x20000164)  returns 0x00 (0000ms, 1666ms total)
T4128 1262:420 JLINK_WriteReg(R3, 0x00000000)  returns 0x00 (0000ms, 1666ms total)
T4128 1262:420 JLINK_WriteReg(R4, 0x00000000)  returns 0x00 (0000ms, 1666ms total)
T4128 1262:420 JLINK_WriteReg(R5, 0x00000000)  returns 0x00 (0000ms, 1666ms total)
T4128 1262:420 JLINK_WriteReg(R6, 0x00000000)  returns 0x00 (0000ms, 1666ms total)
T4128 1262:420 JLINK_WriteReg(R7, 0x00000000)  returns 0x00 (0000ms, 1666ms total)
T4128 1262:420 JLINK_WriteReg(R8, 0x00000000)  returns 0x00 (0000ms, 1666ms total)
T4128 1262:420 JLINK_WriteReg(R9, 0x20000160)  returns 0x00 (0000ms, 1666ms total)
T4128 1262:420 JLINK_WriteReg(R10, 0x00000000)  returns 0x00 (0000ms, 1666ms total)
T4128 1262:420 JLINK_WriteReg(R11, 0x00000000)  returns 0x00 (0000ms, 1666ms total)
T4128 1262:420 JLINK_WriteReg(R12, 0x00000000)  returns 0x00 (0000ms, 1666ms total)
T4128 1262:420 JLINK_WriteReg(R13 (SP), 0x20001000)  returns 0x00 (0000ms, 1666ms total)
T4128 1262:420 JLINK_WriteReg(R14, 0x20000001)  returns 0x00 (0000ms, 1666ms total)
T4128 1262:420 JLINK_WriteReg(R15 (PC), 0x200000F4)  returns 0x00 (0000ms, 1666ms total)
T4128 1262:421 JLINK_WriteReg(XPSR, 0x01000000)  returns 0x00 (0000ms, 1666ms total)
T4128 1262:421 JLINK_WriteReg(MSP, 0x20001000)  returns 0x00 (0000ms, 1666ms total)
T4128 1262:421 JLINK_WriteReg(PSP, 0x20001000)  returns 0x00 (0000ms, 1666ms total)
T4128 1262:421 JLINK_WriteReg(CFBP, 0x00000000)  returns 0x00 (0000ms, 1666ms total)
T4128 1262:421 JLINK_SetBPEx(Addr = 0x20000000, Type = 0xFFFFFFF2)  returns 0x00000009 (0000ms, 1666ms total)
T4128 1262:421 JLINK_Go() (0001ms, 1667ms total)
T4128 1262:422 JLINK_IsHalted()  returns FALSE (0000ms, 1667ms total)
T4128 1262:424 JLINK_IsHalted()  returns FALSE (0000ms, 1667ms total)
T4128 1262:426 JLINK_IsHalted()  returns FALSE (0001ms, 1668ms total)
T4128 1262:431 JLINK_IsHalted()  returns FALSE (0000ms, 1667ms total)
T4128 1262:433 JLINK_IsHalted()  returns FALSE (0001ms, 1668ms total)
T4128 1262:436 JLINK_IsHalted()  returns FALSE (0000ms, 1667ms total)
T4128 1262:438 JLINK_IsHalted()  returns FALSE (0000ms, 1667ms total)
T4128 1262:439 JLINK_IsHalted()  returns FALSE (0000ms, 1667ms total)
T4128 1262:441 JLINK_IsHalted()  returns FALSE (0000ms, 1667ms total)
T4128 1262:444 JLINK_IsHalted()  returns FALSE (0001ms, 1668ms total)
T4128 1262:446 JLINK_IsHalted()  returns FALSE (0000ms, 1667ms total)
T4128 1262:447 JLINK_IsHalted()  returns FALSE (0001ms, 1668ms total)
T4128 1262:449 JLINK_IsHalted()  returns FALSE (0000ms, 1667ms total)
T4128 1262:450 JLINK_IsHalted()  returns FALSE (0000ms, 1667ms total)
T4128 1262:452 JLINK_IsHalted()  returns FALSE (0000ms, 1667ms total)
T4128 1262:454 JLINK_IsHalted() -- CPU_ReadMem(2 bytes @ 0x20000000)  returns TRUE (0003ms, 1670ms total)
T4128 1262:457 JLINK_ReadReg(R15 (PC))  returns 0x20000000 (0000ms, 1667ms total)
T4128 1262:457 JLINK_ClrBPEx(BPHandle = 0x00000009)  returns 0x00 (0000ms, 1667ms total)
T4128 1262:457 JLINK_ReadReg(R0)  returns 0x00000000 (0000ms, 1667ms total)
T4128 1262:457 JLINK_WriteMem(0x20000164, 0x029C Bytes, ...) - Data: 88 47 70 BD 70 B5 05 46 6C 6A A0 6A 40 F0 40 00 ... -- CPU_WriteMem(668 bytes @ 0x20000164)  returns 0x29C (0004ms, 1671ms total)
T4128 1262:461 JLINK_WriteMem(0x20000400, 0x0164 Bytes, ...) - Data: 20 60 20 68 08 B9 02 20 F6 E7 28 46 05 F0 76 F9 ... -- CPU_WriteMem(356 bytes @ 0x20000400)  returns 0x164 (0002ms, 1673ms total)
T4128 1262:463 JLINK_WriteReg(R0, 0x08001400)  returns 0x00 (0000ms, 1673ms total)
T4128 1262:463 JLINK_WriteReg(R1, 0x00000400)  returns 0x00 (0000ms, 1673ms total)
T4128 1262:463 JLINK_WriteReg(R2, 0x20000164)  returns 0x00 (0000ms, 1673ms total)
T4128 1262:463 JLINK_WriteReg(R3, 0x00000000)  returns 0x00 (0000ms, 1673ms total)
T4128 1262:463 JLINK_WriteReg(R4, 0x00000000)  returns 0x00 (0000ms, 1673ms total)
T4128 1262:463 JLINK_WriteReg(R5, 0x00000000)  returns 0x00 (0000ms, 1673ms total)
T4128 1262:463 JLINK_WriteReg(R6, 0x00000000)  returns 0x00 (0000ms, 1673ms total)
T4128 1262:463 JLINK_WriteReg(R7, 0x00000000)  returns 0x00 (0000ms, 1673ms total)
T4128 1262:463 JLINK_WriteReg(R8, 0x00000000)  returns 0x00 (0000ms, 1673ms total)
T4128 1262:463 JLINK_WriteReg(R9, 0x20000160)  returns 0x00 (0000ms, 1673ms total)
T4128 1262:463 JLINK_WriteReg(R10, 0x00000000)  returns 0x00 (0000ms, 1673ms total)
T4128 1262:463 JLINK_WriteReg(R11, 0x00000000)  returns 0x00 (0000ms, 1673ms total)
T4128 1262:463 JLINK_WriteReg(R12, 0x00000000)  returns 0x00 (0000ms, 1673ms total)
T4128 1262:463 JLINK_WriteReg(R13 (SP), 0x20001000)  returns 0x00 (0000ms, 1673ms total)
T4128 1262:463 JLINK_WriteReg(R14, 0x20000001)  returns 0x00 (0000ms, 1673ms total)
T4128 1262:463 JLINK_WriteReg(R15 (PC), 0x200000F4)  returns 0x00 (0000ms, 1673ms total)
T4128 1262:463 JLINK_WriteReg(XPSR, 0x01000000)  returns 0x00 (0000ms, 1673ms total)
T4128 1262:463 JLINK_WriteReg(MSP, 0x20001000)  returns 0x00 (0000ms, 1673ms total)
T4128 1262:463 JLINK_WriteReg(PSP, 0x20001000)  returns 0x00 (0000ms, 1673ms total)
T4128 1262:463 JLINK_WriteReg(CFBP, 0x00000000)  returns 0x00 (0000ms, 1673ms total)
T4128 1262:463 JLINK_SetBPEx(Addr = 0x20000000, Type = 0xFFFFFFF2)  returns 0x0000000A (0000ms, 1673ms total)
T4128 1262:463 JLINK_Go() (0002ms, 1675ms total)
T4128 1262:465 JLINK_IsHalted()  returns FALSE (0000ms, 1675ms total)
T4128 1262:467 JLINK_IsHalted()  returns FALSE (0000ms, 1675ms total)
T4128 1262:469 JLINK_IsHalted()  returns FALSE (0000ms, 1675ms total)
T4128 1262:471 JLINK_IsHalted()  returns FALSE (0000ms, 1675ms total)
T4128 1262:473 JLINK_IsHalted()  returns FALSE (0000ms, 1675ms total)
T4128 1262:487 JLINK_IsHalted()  returns FALSE (0000ms, 1675ms total)
T4128 1262:489 JLINK_IsHalted()  returns FALSE (0000ms, 1675ms total)
T4128 1262:491 JLINK_IsHalted()  returns FALSE (0000ms, 1675ms total)
T4128 1262:494 JLINK_IsHalted()  returns FALSE (0000ms, 1675ms total)
T4128 1262:495 JLINK_IsHalted() -- CPU_ReadMem(2 bytes @ 0x20000000)  returns TRUE (0003ms, 1678ms total)
T4128 1262:498 JLINK_ReadReg(R15 (PC))  returns 0x20000000 (0000ms, 1675ms total)
T4128 1262:498 JLINK_ClrBPEx(BPHandle = 0x0000000A)  returns 0x00 (0000ms, 1675ms total)
T4128 1262:498 JLINK_ReadReg(R0)  returns 0x00000000 (0000ms, 1675ms total)
T4128 1262:498 JLINK_WriteMem(0x20000164, 0x029C Bytes, ...) - Data: 01 02 03 4B 1A 61 01 80 70 47 00 00 18 06 00 20 ... -- CPU_WriteMem(668 bytes @ 0x20000164)  returns 0x29C (0003ms, 1678ms total)
T4128 1262:501 JLINK_WriteMem(0x20000400, 0x0164 Bytes, ...) - Data: 0A 28 0C D9 A0 6A 20 F0 02 00 40 F0 10 00 A0 62 ... -- CPU_WriteMem(356 bytes @ 0x20000400)  returns 0x164 (0002ms, 1680ms total)
T4128 1262:503 JLINK_WriteReg(R0, 0x08001800)  returns 0x00 (0000ms, 1680ms total)
T4128 1262:503 JLINK_WriteReg(R1, 0x00000400)  returns 0x00 (0000ms, 1680ms total)
T4128 1262:503 JLINK_WriteReg(R2, 0x20000164)  returns 0x00 (0000ms, 1680ms total)
T4128 1262:503 JLINK_WriteReg(R3, 0x00000000)  returns 0x00 (0000ms, 1680ms total)
T4128 1262:503 JLINK_WriteReg(R4, 0x00000000)  returns 0x00 (0000ms, 1680ms total)
T4128 1262:503 JLINK_WriteReg(R5, 0x00000000)  returns 0x00 (0000ms, 1680ms total)
T4128 1262:503 JLINK_WriteReg(R6, 0x00000000)  returns 0x00 (0000ms, 1680ms total)
T4128 1262:503 JLINK_WriteReg(R7, 0x00000000)  returns 0x00 (0000ms, 1680ms total)
T4128 1262:503 JLINK_WriteReg(R8, 0x00000000)  returns 0x00 (0000ms, 1680ms total)
T4128 1262:503 JLINK_WriteReg(R9, 0x20000160)  returns 0x00 (0000ms, 1680ms total)
T4128 1262:503 JLINK_WriteReg(R10, 0x00000000)  returns 0x00 (0000ms, 1680ms total)
T4128 1262:503 JLINK_WriteReg(R11, 0x00000000)  returns 0x00 (0000ms, 1680ms total)
T4128 1262:503 JLINK_WriteReg(R12, 0x00000000)  returns 0x00 (0000ms, 1680ms total)
T4128 1262:503 JLINK_WriteReg(R13 (SP), 0x20001000)  returns 0x00 (0000ms, 1680ms total)
T4128 1262:503 JLINK_WriteReg(R14, 0x20000001)  returns 0x00 (0000ms, 1680ms total)
T4128 1262:503 JLINK_WriteReg(R15 (PC), 0x200000F4)  returns 0x00 (0000ms, 1680ms total)
T4128 1262:503 JLINK_WriteReg(XPSR, 0x01000000)  returns 0x00 (0000ms, 1680ms total)
T4128 1262:503 JLINK_WriteReg(MSP, 0x20001000)  returns 0x00 (0000ms, 1680ms total)
T4128 1262:503 JLINK_WriteReg(PSP, 0x20001000)  returns 0x00 (0000ms, 1680ms total)
T4128 1262:503 JLINK_WriteReg(CFBP, 0x00000000)  returns 0x00 (0000ms, 1680ms total)
T4128 1262:503 JLINK_SetBPEx(Addr = 0x20000000, Type = 0xFFFFFFF2)  returns 0x0000000B (0000ms, 1680ms total)
T4128 1262:503 JLINK_Go() (0003ms, 1683ms total)
T4128 1262:506 JLINK_IsHalted()  returns FALSE (0000ms, 1683ms total)
T4128 1262:507 JLINK_IsHalted()  returns FALSE (0001ms, 1684ms total)
T4128 1262:510 JLINK_IsHalted()  returns FALSE (0000ms, 1683ms total)
T4128 1262:512 JLINK_IsHalted()  returns FALSE (0000ms, 1683ms total)
T4128 1262:514 JLINK_IsHalted()  returns FALSE (0000ms, 1683ms total)
T4128 1262:516 JLINK_IsHalted()  returns FALSE (0001ms, 1684ms total)
T4128 1262:519 JLINK_IsHalted()  returns FALSE (0000ms, 1683ms total)
T4128 1262:521 JLINK_IsHalted()  returns FALSE (0000ms, 1683ms total)
T4128 1262:523 JLINK_IsHalted()  returns FALSE (0000ms, 1683ms total)
T4128 1262:526 JLINK_IsHalted()  returns FALSE (0000ms, 1683ms total)
T4128 1262:527 JLINK_IsHalted()  returns FALSE (0000ms, 1683ms total)
T4128 1262:530 JLINK_IsHalted()  returns FALSE (0000ms, 1683ms total)
T4128 1262:532 JLINK_IsHalted()  returns FALSE (0000ms, 1683ms total)
T4128 1262:533 JLINK_IsHalted()  returns FALSE (0000ms, 1683ms total)
T4128 1262:535 JLINK_IsHalted()  returns FALSE (0000ms, 1683ms total)
T4128 1262:538 JLINK_IsHalted() -- CPU_ReadMem(2 bytes @ 0x20000000)  returns TRUE (0001ms, 1684ms total)
T4128 1262:539 JLINK_ReadReg(R15 (PC))  returns 0x20000000 (0000ms, 1683ms total)
T4128 1262:539 JLINK_ClrBPEx(BPHandle = 0x0000000B)  returns 0x00 (0000ms, 1683ms total)
T4128 1262:539 JLINK_ReadReg(R0)  returns 0x00000000 (0000ms, 1683ms total)
T4128 1262:540 JLINK_WriteMem(0x20000164, 0x029C Bytes, ...) - Data: 0D 78 05 EB 45 05 8C 68 AC 40 20 43 14 68 20 61 ... -- CPU_WriteMem(668 bytes @ 0x20000164)  returns 0x29C (0004ms, 1687ms total)
T4128 1262:544 JLINK_WriteMem(0x20000400, 0x0164 Bytes, ...) - Data: 00 F0 E6 FC 08 B1 FF F7 88 FB 00 BF 07 48 20 62 ... -- CPU_WriteMem(356 bytes @ 0x20000400)  returns 0x164 (0002ms, 1689ms total)
T4128 1262:546 JLINK_WriteReg(R0, 0x08001C00)  returns 0x00 (0000ms, 1689ms total)
T4128 1262:546 JLINK_WriteReg(R1, 0x00000400)  returns 0x00 (0000ms, 1689ms total)
T4128 1262:546 JLINK_WriteReg(R2, 0x20000164)  returns 0x00 (0000ms, 1689ms total)
T4128 1262:546 JLINK_WriteReg(R3, 0x00000000)  returns 0x00 (0000ms, 1689ms total)
T4128 1262:546 JLINK_WriteReg(R4, 0x00000000)  returns 0x00 (0000ms, 1689ms total)
T4128 1262:546 JLINK_WriteReg(R5, 0x00000000)  returns 0x00 (0000ms, 1689ms total)
T4128 1262:546 JLINK_WriteReg(R6, 0x00000000)  returns 0x00 (0000ms, 1689ms total)
T4128 1262:546 JLINK_WriteReg(R7, 0x00000000)  returns 0x00 (0000ms, 1689ms total)
T4128 1262:546 JLINK_WriteReg(R8, 0x00000000)  returns 0x00 (0000ms, 1689ms total)
T4128 1262:546 JLINK_WriteReg(R9, 0x20000160)  returns 0x00 (0000ms, 1689ms total)
T4128 1262:546 JLINK_WriteReg(R10, 0x00000000)  returns 0x00 (0000ms, 1689ms total)
T4128 1262:546 JLINK_WriteReg(R11, 0x00000000)  returns 0x00 (0000ms, 1689ms total)
T4128 1262:546 JLINK_WriteReg(R12, 0x00000000)  returns 0x00 (0000ms, 1689ms total)
T4128 1262:546 JLINK_WriteReg(R13 (SP), 0x20001000)  returns 0x00 (0000ms, 1689ms total)
T4128 1262:546 JLINK_WriteReg(R14, 0x20000001)  returns 0x00 (0000ms, 1689ms total)
T4128 1262:546 JLINK_WriteReg(R15 (PC), 0x200000F4)  returns 0x00 (0000ms, 1689ms total)
T4128 1262:546 JLINK_WriteReg(XPSR, 0x01000000)  returns 0x00 (0000ms, 1689ms total)
T4128 1262:546 JLINK_WriteReg(MSP, 0x20001000)  returns 0x00 (0000ms, 1689ms total)
T4128 1262:546 JLINK_WriteReg(PSP, 0x20001000)  returns 0x00 (0000ms, 1689ms total)
T4128 1262:546 JLINK_WriteReg(CFBP, 0x00000000)  returns 0x00 (0000ms, 1689ms total)
T4128 1262:546 JLINK_SetBPEx(Addr = 0x20000000, Type = 0xFFFFFFF2)  returns 0x0000000C (0000ms, 1689ms total)
T4128 1262:546 JLINK_Go() (0002ms, 1691ms total)
T4128 1262:548 JLINK_IsHalted()  returns FALSE (0000ms, 1691ms total)
T4128 1262:549 JLINK_IsHalted()  returns FALSE (0000ms, 1691ms total)
T4128 1262:551 JLINK_IsHalted()  returns FALSE (0000ms, 1691ms total)
T4128 1262:553 JLINK_IsHalted()  returns FALSE (0000ms, 1691ms total)
T4128 1262:555 JLINK_IsHalted()  returns FALSE (0000ms, 1691ms total)
T4128 1262:557 JLINK_IsHalted()  returns FALSE (0000ms, 1691ms total)
T4128 1262:559 JLINK_IsHalted()  returns FALSE (0000ms, 1691ms total)
T4128 1262:561 JLINK_IsHalted()  returns FALSE (0000ms, 1691ms total)
T4128 1262:563 JLINK_IsHalted()  returns FALSE (0001ms, 1692ms total)
T4128 1262:565 JLINK_IsHalted()  returns FALSE (0000ms, 1691ms total)
T4128 1262:567 JLINK_IsHalted()  returns FALSE (0000ms, 1691ms total)
T4128 1262:569 JLINK_IsHalted()  returns FALSE (0000ms, 1691ms total)
T4128 1262:571 JLINK_IsHalted()  returns FALSE (0000ms, 1691ms total)
T4128 1262:573 JLINK_IsHalted()  returns FALSE (0001ms, 1692ms total)
T4128 1262:575 JLINK_IsHalted()  returns FALSE (0000ms, 1691ms total)
T4128 1262:577 JLINK_IsHalted()  returns FALSE (0000ms, 1691ms total)
T4128 1262:579 JLINK_IsHalted() -- CPU_ReadMem(2 bytes @ 0x20000000)  returns TRUE (0003ms, 1694ms total)
T4128 1262:582 JLINK_ReadReg(R15 (PC))  returns 0x20000000 (0000ms, 1691ms total)
T4128 1262:582 JLINK_ClrBPEx(BPHandle = 0x0000000C)  returns 0x00 (0000ms, 1691ms total)
T4128 1262:582 JLINK_ReadReg(R0)  returns 0x00000000 (0000ms, 1691ms total)
T4128 1262:585 JLINK_WriteMem(0x20000164, 0x029C Bytes, ...) - Data: 04 46 0D 46 16 46 00 27 57 49 20 68 88 42 03 D0 ... -- CPU_WriteMem(668 bytes @ 0x20000164)  returns 0x29C (0003ms, 1694ms total)
T4128 1262:588 JLINK_WriteMem(0x20000400, 0x0164 Bytes, ...) - Data: 28 44 00 90 04 E0 02 F1 14 00 00 9D 28 44 00 90 ... -- CPU_WriteMem(356 bytes @ 0x20000400)  returns 0x164 (0002ms, 1696ms total)
T4128 1262:590 JLINK_WriteReg(R0, 0x08002000)  returns 0x00 (0000ms, 1696ms total)
T4128 1262:590 JLINK_WriteReg(R1, 0x00000400)  returns 0x00 (0000ms, 1696ms total)
T4128 1262:590 JLINK_WriteReg(R2, 0x20000164)  returns 0x00 (0000ms, 1696ms total)
T4128 1262:590 JLINK_WriteReg(R3, 0x00000000)  returns 0x00 (0000ms, 1696ms total)
T4128 1262:590 JLINK_WriteReg(R4, 0x00000000)  returns 0x00 (0000ms, 1696ms total)
T4128 1262:590 JLINK_WriteReg(R5, 0x00000000)  returns 0x00 (0000ms, 1696ms total)
T4128 1262:590 JLINK_WriteReg(R6, 0x00000000)  returns 0x00 (0000ms, 1696ms total)
T4128 1262:590 JLINK_WriteReg(R7, 0x00000000)  returns 0x00 (0000ms, 1696ms total)
T4128 1262:590 JLINK_WriteReg(R8, 0x00000000)  returns 0x00 (0000ms, 1696ms total)
T4128 1262:590 JLINK_WriteReg(R9, 0x20000160)  returns 0x00 (0000ms, 1696ms total)
T4128 1262:590 JLINK_WriteReg(R10, 0x00000000)  returns 0x00 (0000ms, 1696ms total)
T4128 1262:590 JLINK_WriteReg(R11, 0x00000000)  returns 0x00 (0000ms, 1696ms total)
T4128 1262:590 JLINK_WriteReg(R12, 0x00000000)  returns 0x00 (0000ms, 1696ms total)
T4128 1262:590 JLINK_WriteReg(R13 (SP), 0x20001000)  returns 0x00 (0000ms, 1696ms total)
T4128 1262:590 JLINK_WriteReg(R14, 0x20000001)  returns 0x00 (0000ms, 1696ms total)
T4128 1262:590 JLINK_WriteReg(R15 (PC), 0x200000F4)  returns 0x00 (0000ms, 1696ms total)
T4128 1262:590 JLINK_WriteReg(XPSR, 0x01000000)  returns 0x00 (0000ms, 1696ms total)
T4128 1262:590 JLINK_WriteReg(MSP, 0x20001000)  returns 0x00 (0000ms, 1696ms total)
T4128 1262:590 JLINK_WriteReg(PSP, 0x20001000)  returns 0x00 (0000ms, 1696ms total)
T4128 1262:590 JLINK_WriteReg(CFBP, 0x00000000)  returns 0x00 (0000ms, 1696ms total)
T4128 1262:590 JLINK_SetBPEx(Addr = 0x20000000, Type = 0xFFFFFFF2)  returns 0x0000000D (0000ms, 1696ms total)
T4128 1262:590 JLINK_Go() (0001ms, 1697ms total)
T4128 1262:591 JLINK_IsHalted()  returns FALSE (0000ms, 1697ms total)
T4128 1262:595 JLINK_IsHalted()  returns FALSE (0001ms, 1698ms total)
T4128 1262:598 JLINK_IsHalted()  returns FALSE (0000ms, 1697ms total)
T4128 1262:600 JLINK_IsHalted()  returns FALSE (0000ms, 1697ms total)
T4128 1262:602 JLINK_IsHalted()  returns FALSE (0000ms, 1697ms total)
T4128 1262:604 JLINK_IsHalted()  returns FALSE (0000ms, 1697ms total)
T4128 1262:606 JLINK_IsHalted()  returns FALSE (0000ms, 1697ms total)
T4128 1262:608 JLINK_IsHalted()  returns FALSE (0000ms, 1697ms total)
T4128 1262:610 JLINK_IsHalted()  returns FALSE (0000ms, 1697ms total)
T4128 1262:612 JLINK_IsHalted()  returns FALSE (0000ms, 1697ms total)
T4128 1262:614 JLINK_IsHalted()  returns FALSE (0000ms, 1697ms total)
T4128 1262:615 JLINK_IsHalted()  returns FALSE (0000ms, 1697ms total)
T4128 1262:617 JLINK_IsHalted()  returns FALSE (0001ms, 1698ms total)
T4128 1262:620 JLINK_IsHalted()  returns FALSE (0000ms, 1697ms total)
T4128 1262:622 JLINK_IsHalted()  returns FALSE (0000ms, 1697ms total)
T4128 1262:624 JLINK_IsHalted() -- CPU_ReadMem(2 bytes @ 0x20000000)  returns TRUE (0002ms, 1699ms total)
T4128 1262:626 JLINK_ReadReg(R15 (PC))  returns 0x20000000 (0000ms, 1697ms total)
T4128 1262:626 JLINK_ClrBPEx(BPHandle = 0x0000000D)  returns 0x00 (0000ms, 1697ms total)
T4128 1262:626 JLINK_ReadReg(R0)  returns 0x00000000 (0000ms, 1697ms total)
T4128 1262:628 JLINK_WriteMem(0x20000164, 0x029C Bytes, ...) - Data: 33 49 09 1F 08 60 51 E0 30 49 78 39 20 68 88 42 ... -- CPU_WriteMem(668 bytes @ 0x20000164)  returns 0x29C (0003ms, 1700ms total)
T4128 1262:631 JLINK_WriteMem(0x20000400, 0x0164 Bytes, ...) - Data: 0A 00 21 68 08 60 01 20 84 F8 21 00 6E 49 20 68 ... -- CPU_WriteMem(356 bytes @ 0x20000400)  returns 0x164 (0003ms, 1703ms total)
T4128 1262:634 JLINK_WriteReg(R0, 0x08002400)  returns 0x00 (0000ms, 1703ms total)
T4128 1262:634 JLINK_WriteReg(R1, 0x00000400)  returns 0x00 (0000ms, 1703ms total)
T4128 1262:634 JLINK_WriteReg(R2, 0x20000164)  returns 0x00 (0000ms, 1703ms total)
T4128 1262:634 JLINK_WriteReg(R3, 0x00000000)  returns 0x00 (0000ms, 1703ms total)
